Using: /usr/synopsys/HSPICE/hspice/O-2018.09-1/hspice/linux64/hspice  -i 'nmos_2w.sp'
 ****** HSPICE -- O-2018.09-1 linux64 (Sep 27 2018) ******                      
  Copyright (c) 1986 - 2024 by Synopsys, Inc. All Rights Reserved.              
  This software and the associated documentation are proprietary
  to Synopsys, Inc. This software may only be used in accordance
  with the terms and conditions of a written license agreement with
  Synopsys, Inc. All other use, reproduction, or distribution of
  this software is strictly prohibited.
  Input File: nmos_2w.sp                                                        
  Command line options: /usr/synopsys/HSPICE/hspice/O-2018.09-1/hspice/linux64/hspice -i nmos_2w.sp
 lic:  
 lic: FLEXlm: SDK_11.6.9.6 
 lic: USER:   mohammed             HOSTNAME: husynposyseng 
 lic: HOSTID: 005056ba9913         PID:      11764 
 lic: Using FLEXlm license file: 
 lic: 27020@husynposyseng 
 lic: Checkout 1 hspice 
 lic: License/Maintenance for hspice will expire on 31-jan-2026/2024.09 
 lic: 1(in_use)/100(total) FLOATING license(s) on SERVER 27020@husynposyseng 
 lic:   
1****** HSPICE -- O-2018.09-1 linux64 (Sep 27 2018) ******                      
 ******  
 ***** nmos.sp

 ****** circuit name directory
 circuit number to circuit name directory
   number circuitname                     definition         multiplier
        0 main circuit
        1 mmn.                            n105_hvt           1.00 
 ******  
 ***** nmos.sp

 ****** mos   model parameters tnom=  25.000 temp=  25.000 ******
 Model file: /home/mohammed/saed32nm.lib
 Model line:         1730
 Model Name: n105_hvt  
 BSIM4 Model (Level 54)
    MOBMOD = 0
    BINUNIT = 1
    PARAMCHK = 0
    CAPMOD = 2
    DIOMOD = 1
    RDSMOD = 0
    TRNQSMOD = 0
    ACNQSMOD = 0
    RBODYMOD = 0
    RGATEMOD = 0
    PERMOD = 1
    GEOMOD = 0
    RGEOMOD = 0
    FNOIMOD = 1
    TNOIMOD = 0
    IGCMOD = 1
    IGBMOD = 1
    STIMOD = 1
    VBFWDMOD = 0
    VERSION =    4.5 
    TOXREF = 2.39e-09 
    TOXE = 2.39e-09 
    TOXP = 2.24e-09 
    TOXM = 2.39e-09 
    DTOX =      0 
    EPSROX =    3.9 
    CDSC =      0 
    CDSCB = -0.00415 
    CDSCD =      0 
    CIT =      0 
    NFACTOR =    1.9 
    XJ =  1e-07 
    VSAT = 2.141e+05 
    A0 =    1.8 
    AGS =  1.232 
    A1 =      0 
    A2 =    0.4 
    AT = 0.00122 
    KETA =      0 
    NSUB =  6e+16 
    NDEP =  5e+17 
    NSD =  1e+20 
    NGATE =  1e+23 
    GAMMA1 =      0 
    GAMMA2 =      0 
    VBX =      0 
    VBM =     -3 
    XT = 1.55e-07 
    K1 = 0.3435 
    KT1 = -0.2796 
    KT1L =  1e-11 
    KT2 = -0.0232 
    K2 = -0.03171 
    K3 =  -2.15 
    K3B =  -0.22 
    LPE0 =  1e-08 
    LPEB =  2e-08 
    DVTP0 = 1.2e-06 
    DVTP1 =      0 
    W0 =      0 
    DVT0 =  3.571 
    DVT1 =    0.8 
    DVT2 =   0.06 
    DVT0W = -0.002336 
    DVT1W = 4.278e+05 
    DVT2W =   0.15 
    DROUT =   0.06 
    DSUB =    0.9 
    VTH0 =  0.447 
    EU =   1.67 
    UA = 9.209e-10 
    UA1 = 0.003827 
    UB = 2.207e-18 
    UB1 = -0.004406 
    UC = 2.6e-10 
    UC1 =      0 
    U0 =   1900 
    UTE =  -1.91 
    VOFF = -0.1554 
    VOFFL = -2.94e-09 
    MINV = -0.168 
    FPROUT =     50 
    PDITS = 0.5299 
    PDITSD =    0.9 
    PDITSL = 2.5e+06 
    DELTA =  0.005 
    RDSW =  400.5 
    RDSWMIN =      0 
    RDWMIN =    180 
    RSWMIN =    180 
    RDW =    100 
    RSW =    100 
    PRWG =      0 
    PRWB =    0.1 
    PRT =  0.015 
    ETA0 =  0.263 
    ETAB =  -0.12 
    PCLM = 0.5198 
    PDIBLC1 = 0.00015 
    PDIBLC2 =  0.025 
    PDIBLCB =   -0.7 
    PSCBE1 =  5e+09 
    PSCBE2 =  5e-06 
    PVAG =      6 
    WR =      1 
    DWG =      0 
    DWB =      0 
    XW = 4.3e-07 
    XWREF = 4.3e-07 
    XL =  2e-09 
    XLREF =  2e-09 
    B0 =      0 
    B1 =      0 
    ALPHA0 =  4e-12 
    ALPHA1 =      0 
    AGIDL = 1.5e-10 
    BGIDL = 9.749e+08 
    CGIDL =    3.2 
    PHIN =    0.1 
    EGIDL =   0.01 
    AIGC = 0.01086 
    BIGC = 0.0009868 
    CIGC = 0.000296 
    AIGSD = 0.00889 
    BIGSD = 0.0007742 
    CIGSD = 0.01464 
    AIGBACC = 0.01356 
    BIGBACC = 0.00279 
    CIGBACC = 0.01086 
    AIGBINV = 0.01142 
    BIGBINV = 0.001212 
    CIGBINV = 0.001479 
    NIGC =  3.294 
    NIGBINV =      3 
    NIGBACC =   8.23 
    NTOX =      1 
    EIGBINV =    1.1 
    PIGCD =      1 
    POXEDGE =  1.276 
    XRCRG1 =     12 
    TNOIA =    1.5 
    TNOIB =    3.5 
    NTNOI =      1 
    XRCRG2 =      1 
    BETA0 =      2 
    IJTHDFWD =    0.1 
    IJTHSFWD =    0.1 
    IJTHDREV =    0.1 
    IJTHSREV =    0.1 
    XJBVD =      1 
    XJBVS =      1 
    BVD =     12 
    BVS =     12 
    VFB =     -1 
    GBMIN =  1e-12 
    RBDB =     50 
    RBPB =     50 
    RBSB =     50 
    RBPS =     50 
    RBPD =     50 
    CGSL = 1.765e-10 
    CGDL = 1.077e-09 
    CKAPPAS =    4.5 
    CKAPPAD =    4.5 
    CF =      0 
    CLC =      0 
    CLE =    0.6 
    DWC =      0 
    DLC = 7.834e-09 
    DLCIG =  5e-09 
    DWJ =      0 
    VFBCV =     -1 
    ACDE =    0.4 
    MOIN =      5 
    NOFF =  2.118 
    VOFFCV = -0.2843 
    DMCG =  7e-08 
    DMCI = 3.5e-08 
    DMDG =  6e-08 
    DMCGT =      0 
    XGW =  4e-08 
    XGL = -2e-09 
    RSHG =     11 
    NGCON =      1 
    TCJ = 0.0007111 
    TPB = 0.001251 
    TCJSW = 0.0005498 
    TPBSW = 0.00108 
    TCJSWG = 6.6e-05 
    TPBSWG = 0.002588 
    SK0 =      0 
    SK1 =      0 
    SK2 =      0 
    SL =  2e-06 
    SW =  2e-06 
    K =      0 
    LNFACTOR =   0.05 
    LLPE0 = 2.5e-09 
    LUTE = 0.03886 
    LBGIDL = -5e+06 
    LAIGC = -7.7e-06 
    LNOFF =   0.08 
    WU0 =  56.01 
    PVSAT =  223.3 
    TNOM =  298.1 
    CGSO = 5.1e-11 
    CGDO = 5.1e-11 
    CGBO =  1e-12 
    XPART =      0 
    RSH =     12 
    JSS =  1e-06 
    JSWS = 1.484e-13 
    JSWGS = 7.172e-13 
    PBS = 0.8977 
    MJS = 0.4077 
    PBSWS =      1 
    MJSWS = 0.5128 
    CJS = 0.1935 
    CJSWS = 8.2e-11 
    NJS =  1.104 
    PBSWGS =  1.442 
    MJSWGS =   0.98 
    CJSWGS = 3.2e-10 
    XTIS =   -0.6 
    JSD =  1e-06 
    JSWD = 1.484e-13 
    JSWGD = 7.172e-13 
    PBD = 0.8977 
    MJD = 0.4077 
    PBSWD =      1 
    MJSWD = 0.5128 
    CJD = 0.1935 
    CJSWD = 8.2e-11 
    NJD =  1.104 
    PBSWGD =  1.442 
    MJSWGD =   0.98 
    CJSWGD = 3.2e-10 
    XTID =   -0.6 
    LMLT =      1 
    WMLT =      1 
    LINT = 1.934e-10 
    LL =      0 
    LLC =      0 
    LLN =      1 
    LW =      0 
    LWC =      0 
    LWN =      1 
    LWL =      0 
    LWLC =      0 
    LMIN =      0 
    LMAX =      1 
    WINT =      0 
    WL =      0 
    WLC =      0 
    WLN =      1 
    WW =      0 
    WWC =      0 
    WWN =      1 
    WWL =      0 
    WWLC =      0 
    WMIN =      0 
    WMAX =      1 
    NOIA = 6.72e+41 
    NOIB = 5.413e+23 
    NOIC = 2.288e+09 
    EM = 4.1e+07 
    EF =   0.95 
    AF =      1 
    KF = 1.5e-27 
    TRS =      0 
    TRD =      0 
    TEMPMOD  =      1 
    LAMBDA   =      0 
    VTL      =  2e+05 m/s
    LC       =  5e-09 
    XN       =      3 
    LLAMBDA  =      0 
    LVTL     =      0 
    LXN      =      0 
    WLAMBDA  =      0 
    WVTL     =      0 
    WXN      =      0 
    PLAMBDA  =      0 
    PVTL     =      0 
    PXN      =      0 
    RNOIA    =  0.577 
    RNOIB    = 0.5164 
    SAREF(SA0) = 4.48e-07 m
    SBREF(SB0) = 4.48e-07 m
    WLOD     =      0 m
    KU0      =      0 1/m
    KVSAT    =      0 
    KVTH0    = 6.5e-10 m
    TKU0     =      0 
    LLODKU0  =      0 
    WLODKU0  =      0 
    LLODVTH  =      0 
    WLODVTH  =      0 
    LKU0     =      0 
    WKU0     =      0 
    PKU0     =      0 
    LKVTH0   =      0 
    WKVTH0   =      0 
    PKVTH0   =      0 
    STK2     =      0 
    LODK2    =      1 
    STETA0   =      0 
    LODETA0  =      1 
    LXRCRG1  =      0 
    WXRCRG1  =      0 
    PXRCRG1  =      0 
    LXRCRG2  =      0 
    WXRCRG2  =      0 
    PXRCRG2  =      0 
     *** UCB's BSIM4.4.0 new diode model is activated. ***
    *** UCB's Diode Model Parameters ***
    JTSS         =  5e-06 
    JTSSWS       = 1.2e-10 
    JTSSWGS      = 1.634e-08 
    JTSD         =  5e-06 
    JTSSWD       = 1.2e-10 
    JTSSWGD      = 1.634e-08 
    NJTS         =     20 
    NJTSSW       =     60 
    NJTSSWG      =  7.854 
    XTSS         =   0.02 
    XTSSWS       = 0.5842 
    XTSSWGS      =   0.09 
    XTSD         =   0.02 
    XTSSWD       = 0.5842 
    XTSSWGD      =   0.09 
    TNJTS        =      0 
    TNJTSSW      =    0.8 
    TNJTSSWG     =   0.04 
    VFBSDOFF     =      0 
    LVFBSDOFF    =      0 
    WVFBSDOFF    =      0 
    PVFBSDOFF    =      0 
    LINTNOI      =      0 
    VTSS         =     20 
    VTSD         =     20 
    VTSSWS       =     10 
    VTSSWD       =     10 
    VTSSWGS      =   10.8 
    VTSSWGD      =   10.8 
    TTDIOMOD     =      1 
     *** UCB's BSIM4.5.0 new model is activated. ***
    UD         =      0 
    UD1        =      0 
    UP         =   0.77 
    LP         = 9.65e-08 
    TVOFF      = 0.000366 
    TVFBSDOFF  =      0 
    RBPS0      =     50 
    RBPSL      =      0 
    RBPSW      =      0 
    RBPSNF     =      0 
    RBPD0      =     50 
    RBPDL      =      0 
    RBPDW      =      0 
    RBPDNF     =      0 
    RBPBX0     =    100 
    RBPBXL     =      0 
    RBPBXW     =      0 
    RBPBXNF    =      0 
    RBPBY0     =    100 
    RBPBYL     =      0 
    RBPBYW     =      0 
    RBPBYNF    =      0 
    RBSBX0     =    100 
    RBSBY0     =    100 
    RBDBX0     =    100 
    RBDBY0     =    100 
    RBSDBXL    =      0 
    RBSDBXW    =      0 
    RBSDBXNF   =      0 
    RBSDBYL    =      0 
    RBSDBYW    =      0 
    RBSDBYNF   =      0 
    LUD        =      0 
    LUD1       =      0 
    LUP        =      0 
    LLP        =      0 
    LTVOFF     =      0 
    LTVFBSDOFF =      0 
    WUD        =      0 
    WUD1       =      0 
    WUP        =      0 
    WLP        =      0 
    WTVOFF     =      0 
    WTVFBSDOFF =      0 
    PUD        =      0 
    PUD1       =      0 
    PUP        =      0 
    PLP        =      0 
    PTVOFF     =      0 
    PTVFBSDOFF =      0 
    WEB        = 7.5e+05 
    WEC        = -1e+05 
    KVTH0WE    = 6.063e-07 
    K2WE       =      0 
    KU0WE      =      0 
    SCREF      = 2.5e-06 
    WPEMOD     =      1 
    LKVTH0WE   =      0 
    LK2WE      =      0 
    LKU0WE     =      0 
    WKVTH0WE   =      0 
    WK2WE      =      0 
    WKU0WE     =      0 
    PKVTH0WE   =      0 
    PK2WE      =      0 
    PKU0WE     =      0 
  **warning** (nmos_2w.sp:22) Both nodes of element vgnd are connected together; Line ignored.
  
      

Element variations(Local):   element              parameter
 *****************************************************************
 ******  option summary
 ******
 runlvl  = 3         bypass  = 2.0000    
  Opening plot unit= 15
 file=nmos_2w.pa0

 ******
 ***** nmos.sp

 ****** dc transfer curves tnom=  25.000 temp=  70.000 ******
  *** parameter 0:vgs  =     0.            ***
  
x

 volt         current     current     current    
             vds         vgs         mmn.main    
    0.       -1.2464e-21  2.6099e-21  1.2464e-21 
   50.00000m  -21.4160p     4.2339f    21.4160p  
  100.00000m  -38.9990p    11.1169f    38.9990p  
  150.00000m  -59.8360p    21.1874f    59.8360p  
  200.00000m  -86.3367p    35.0641f    86.3367p  
  250.00000m -120.7009p    53.4572f   120.7009p  
  300.00000m -165.4594p    77.1805f   165.4594p  
  350.00000m -223.7290p   107.1640f   223.7290p  
  400.00000m -299.4231p   144.4698f   299.4231p  
  450.00000m -397.4816p   190.3081f   397.4816p  
  500.00000m -524.1475p   246.0565f   524.1475p  
  550.00000m -687.3081p   313.2806f   687.3081p  
  600.00000m -896.9199p   393.7578f   896.9199p  
  650.00000m   -1.1655n   489.5034f     1.1655n  
  700.00000m   -1.5090n   602.7999f     1.5090n  
  750.00000m   -1.9471n   736.2300f     1.9471n  
  800.00000m   -2.5050n   892.7131f     2.5050n  
  850.00000m   -3.2139n     1.0755p     3.2139n  
  900.00000m   -4.1130n     1.2885p     4.1130n  
  950.00000m   -5.2514n     1.5356p     5.2514n  
    1.00000    -6.6903n     1.8218p     6.6903n  
    1.05000    -8.5058n     2.1523p     8.5058n  
    1.10000   -10.7928n     2.5330p    10.7928n  
    1.15000   -13.6692n     2.9709p    13.6692n  
    1.20000   -17.2813n     3.4733p    17.2813n  
    1.25000   -21.8104n     4.0488p    21.8104n  
    1.30000   -27.4812n     4.7069p    27.4812n  
    1.35000   -34.5713n     5.4584p    34.5713n  
    1.40000   -43.4240n     6.3153p    43.4240n  
    1.45000   -54.4625n     7.2909p    54.4625n  
    1.50000   -68.2084n     8.4004p    68.2084n  
    1.55000   -85.3035n     9.6606p    85.3035n  
    1.60000  -106.5362n    11.0904p   106.5362n  
    1.65000  -132.8734n    12.7110p   132.8734n  
    1.70000  -165.4990n    14.5461p   165.4990n  
    1.75000  -205.8596n    16.6220p   205.8596n  
    1.80000  -255.7188n    18.9683p   255.7188n  
y
 ******
 ***** nmos.sp

 ****** dc transfer curves tnom=  25.000 temp=  70.000 ******
  *** parameter 0:vgs  =   200.0000m       ***
  
x

 volt         current    current    current   
             vds        vgs        mmn.main   
    0.         14.7554f  -29.5793f  -14.7554f 
   50.00000m   -1.5503n  -29.0707f    1.5503n 
  100.00000m   -2.8183n  -30.0934f    2.8183n 
  150.00000m   -4.3173n  -29.7966f    4.3173n 
  200.00000m   -6.2194n  -27.7375f    6.2194n 
  250.00000m   -8.6797n  -23.5005f    8.6797n 
  300.00000m  -11.8753n  -16.6160f   11.8753n 
  350.00000m  -16.0225n   -6.5449f   16.0225n 
  400.00000m  -21.3908n    7.3319f   21.3908n 
  450.00000m  -28.3175n   25.7249f   28.3175n 
  500.00000m  -37.2250n   49.4477f   37.2250n 
  550.00000m  -48.6412n   79.4306f   48.6412n 
  600.00000m  -63.2244n  116.7356f   63.2244n 
  650.00000m  -81.7935n  162.5731f   81.7935n 
  700.00000m -105.3638n  218.3205f  105.3638n 
  750.00000m -135.1908n  285.5435f  135.1908n 
  800.00000m -172.8218n  366.0196f  172.8218n 
  850.00000m -220.1564n  461.7639f  220.1564n 
  900.00000m -279.5191n  575.0590f  279.5191n 
  950.00000m -353.7420n  708.4875f  353.7420n 
    1.00000  -446.2611n  864.9690f  446.2611n 
    1.05000  -561.2251n    1.0478p  561.2251n 
    1.10000  -703.6171n    1.2607p  703.6171n 
    1.15000  -879.3875n    1.5079p  879.3875n 
    1.20000    -1.0956u    1.7940p    1.0956u 
    1.25000    -1.3606u    2.1245p    1.3606u 
    1.30000    -1.6840u    2.5053p    1.6840u 
    1.35000    -2.0772u    2.9431p    2.0772u 
    1.40000    -2.5530u    3.4455p    2.5530u 
    1.45000    -3.1262u    4.0210p    3.1262u 
    1.50000    -3.8129u    4.6792p    3.8129u 
    1.55000    -4.6313u    5.4307p    4.6313u 
    1.60000    -5.6007u    6.2875p    5.6007u 
    1.65000    -6.7419u    7.2631p    6.7419u 
    1.70000    -8.0758u    8.3726p    8.0758u 
    1.75000    -9.6237u    9.6328p    9.6237u 
    1.80000   -11.4056u   11.0626p   11.4056u 
y
 ******
 ***** nmos.sp

 ****** dc transfer curves tnom=  25.000 temp=  70.000 ******
  *** parameter 0:vgs  =   400.0000m       ***
  
x

 volt         current    current    current   
             vds        vgs        mmn.main   
    0.        212.0527f -424.1654f -212.0527f 
   50.00000m -100.1502n -407.1170f  100.1502n 
  100.00000m -179.5387n -396.9306f  179.5387n 
  150.00000m -270.7133n -390.3774f  270.7133n 
  200.00000m -383.2177n -386.2531f  383.2177n 
  250.00000m -524.5990n -386.1036f  524.5990n 
  300.00000m -702.6447n -387.2365f  702.6447n 
  350.00000m -926.0878n -386.9965f  926.0878n 
  400.00000m   -1.2049u -384.9974f    1.2049u 
  450.00000m   -1.5505u -380.8302f    1.5505u 
  500.00000m   -1.9757u -374.0273f    1.9757u 
  550.00000m   -2.4950u -364.0510f    2.4950u 
  600.00000m   -3.1239u -350.2834f    3.1239u 
  650.00000m   -3.8795u -332.0157f    3.8795u 
  700.00000m   -4.7794u -308.4358f    4.7794u 
  750.00000m   -5.8417u -278.6152f    5.8417u 
  800.00000m   -7.0841u -241.4938f    7.0841u 
  850.00000m   -8.5234u -195.8635f    8.5234u 
  900.00000m  -10.1744u -140.3488f   10.1744u 
  950.00000m  -12.0489u  -73.3864f   12.0489u 
    1.00000   -14.1550u    6.7987f   14.1550u 
    1.05000   -16.4961u  102.2192f   16.4961u 
    1.10000   -19.0700u  215.1552f   19.0700u 
    1.15000   -21.8685u  348.1868f   21.8685u 
    1.20000   -24.8771u  504.2308f   24.8771u 
    1.25000   -28.0753u  686.5816f   28.0753u 
    1.30000   -31.4370u  898.9572f   31.4370u 
    1.35000   -34.9310u    1.1456p   34.9310u 
    1.40000   -38.5232u    1.4311p   38.5232u 
    1.45000   -42.1768u    1.7609p   42.1768u 
    1.50000   -45.8549u    2.1409p   45.8549u 
    1.55000   -49.5216u    2.5779p   49.5216u 
    1.60000   -53.1433u    3.0795p   53.1433u 
    1.65000   -56.6907u    3.6541p   56.6907u 
    1.70000   -60.1390u    4.3112p   60.1390u 
    1.75000   -63.4691u    5.0616p   63.4691u 
    1.80000   -66.6677u    5.9173p   66.6677u 
y
 ******
 ***** nmos.sp

 ****** dc transfer curves tnom=  25.000 temp=  70.000 ******
  *** parameter 0:vgs  =   600.0000m       ***
  
x

 volt         current    current    current   
             vds        vgs        mmn.main   
    0.          1.1751p   -2.3503p   -1.1751p 
   50.00000m   -3.0517u   -2.2904p    3.0517u 
  100.00000m   -5.0797u   -2.2586p    5.0797u 
  150.00000m   -7.0033u   -2.2395p    7.0033u 
  200.00000m   -9.0262u   -2.2261p    9.0262u 
  250.00000m  -11.2146u   -2.2172p   11.2146u 
  300.00000m  -13.5930u   -2.2119p   13.5930u 
  350.00000m  -16.1676u   -2.2096p   16.1676u 
  400.00000m  -18.9351u   -2.2100p   18.9351u 
  450.00000m  -21.8850u   -2.2147p   21.8850u 
  500.00000m  -25.0022u   -2.2211p   25.0022u 
  550.00000m  -28.2677u   -2.2265p   28.2677u 
  600.00000m  -31.6607u   -2.2305p   31.6607u 
  650.00000m  -35.1589u   -2.2329p   35.1589u 
  700.00000m  -38.7401u   -2.2330p   38.7401u 
  750.00000m  -42.3826u   -2.2304p   42.3826u 
  800.00000m  -46.0665u   -2.2245p   46.0665u 
  850.00000m  -49.7737u   -2.2145p   49.7737u 
  900.00000m  -53.4888u   -2.1998p   53.4888u 
  950.00000m  -57.1989u   -2.1794p   57.1989u 
    1.00000   -60.8943u   -2.1521p   60.8943u 
    1.05000   -64.5675u   -2.1169p   64.5675u 
    1.10000   -68.2138u   -2.0723p   68.2138u 
    1.15000   -71.8307u   -2.0169p   71.8307u 
    1.20000   -75.4177u   -1.9488p   75.4177u 
    1.25000   -78.9758u   -1.8660p   78.9758u 
    1.30000   -82.5072u   -1.7662p   82.5072u 
    1.35000   -86.0149u   -1.6470p   86.0149u 
    1.40000   -89.5028u   -1.5053p   89.5028u 
    1.45000   -92.9748u   -1.3378p   92.9748u 
    1.50000   -96.4350u   -1.1409p   96.4350u 
    1.55000   -99.8875u -910.3125f   99.8875u 
    1.60000  -103.3362u -641.3515f  103.3362u 
    1.65000  -106.7844u -328.6789f  106.7844u 
    1.70000  -110.2353u   33.6977f  110.2353u 
    1.75000  -113.6915u  452.5164f  113.6915u 
    1.80000  -117.1554u  935.3496f  117.1554u 
y
 ******
 ***** nmos.sp

 ****** dc transfer curves tnom=  25.000 temp=  70.000 ******
  *** parameter 0:vgs  =   800.0000m       ***
  
x

 volt         current    current    current   
             vds        vgs        mmn.main   
    0.          3.6517p   -7.3035p   -3.6517p 
   50.00000m  -19.1396u   -7.1506p   19.1396u 
  100.00000m  -31.8346u   -7.0507p   31.8346u 
  150.00000m  -39.9094u   -7.0229p   39.9094u 
  200.00000m  -46.2785u   -7.0191p   46.2785u 
  250.00000m  -52.0206u   -7.0276p   52.0206u 
  300.00000m  -57.4739u   -7.0452p   57.4739u 
  350.00000m  -62.7728u   -7.0704p   62.7728u 
  400.00000m  -67.9799u   -7.1021p   67.9799u 
  450.00000m  -73.1273u   -7.1396p   73.1273u 
  500.00000m  -78.2324u   -7.1821p   78.2324u 
  550.00000m  -83.3048u   -7.2292p   83.3048u 
  600.00000m  -88.3499u   -7.2804p   88.3499u 
  650.00000m  -93.3706u   -7.3373p   93.3706u 
  700.00000m  -98.3681u   -7.3973p   98.3681u 
  750.00000m -103.3430u   -7.4576p  103.3430u 
  800.00000m -108.2950u   -7.5179p  108.2950u 
