Using: /usr/synopsys/HSPICE/hspice/O-2018.09-1/hspice/linux64/hspice  -i 'pmos.sp'
 ****** HSPICE -- O-2018.09-1 linux64 (Sep 27 2018) ******                      
  Copyright (c) 1986 - 2024 by Synopsys, Inc. All Rights Reserved.              
  This software and the associated documentation are proprietary
  to Synopsys, Inc. This software may only be used in accordance
  with the terms and conditions of a written license agreement with
  Synopsys, Inc. All other use, reproduction, or distribution of
  this software is strictly prohibited.
  Input File: pmos.sp                                                           
  Command line options: /usr/synopsys/HSPICE/hspice/O-2018.09-1/hspice/linux64/hspice -i pmos.sp
 lic:  
 lic: FLEXlm: SDK_11.6.9.6 
 lic: USER:   mohammed             HOSTNAME: husynposyseng 
 lic: HOSTID: 005056ba9913         PID:      14746 
 lic: Using FLEXlm license file: 
 lic: 27020@husynposyseng 
 lic: Checkout 1 hspice 
 lic: License/Maintenance for hspice will expire on 31-jan-2026/2024.09 
 lic: 1(in_use)/100(total) FLOATING license(s) on SERVER 27020@husynposyseng 
 lic:   
1****** HSPICE -- O-2018.09-1 linux64 (Sep 27 2018) ******                      
 ******  
 ***** pmos.sp

 ****** circuit name directory
 circuit number to circuit name directory
   number circuitname                     definition         multiplier
        0 main circuit
        1 mmn.                            p105_hvt           1.00 
 ******  
 ***** pmos.sp

 ****** mos   model parameters tnom=  25.000 temp=  25.000 ******
 Model file: /home/mohammed/saed32nm.lib
 Model line:         1860
 Model Name: p105_hvt  
 BSIM4 Model (Level 54)
    MOBMOD = 0
    BINUNIT = 1
    PARAMCHK = 0
    CAPMOD = 2
    DIOMOD = 1
    RDSMOD = 0
    TRNQSMOD = 0
    ACNQSMOD = 0
    RBODYMOD = 0
    RGATEMOD = 0
    PERMOD = 1
    GEOMOD = 0
    RGEOMOD = 0
    FNOIMOD = 1
    TNOIMOD = 0
    IGCMOD = 1
    IGBMOD = 1
    STIMOD = 1
    VBFWDMOD = 0
    VERSION =    4.5 
    TOXREF = 2.62e-09 
    TOXE = 2.62e-09 
    TOXP = 2.3e-09 
    TOXM = 2.62e-09 
    DTOX =      0 
    EPSROX =    3.9 
    CDSC = 0.02157 
    CDSCB =  0.001 
    CDSCD = 0.001494 
    CIT =      0 
    NFACTOR =      1 
    XJ =  1e-07 
    VSAT = 1.606e+05 
    A0 =    4.3 
    AGS =  1.048 
    A1 =      0 
    A2 = 0.3157 
    AT = 0.0017 
    KETA =      0 
    NSUB =  6e+16 
    NDEP = 1.7e+17 
    NSD =  1e+20 
    NGATE = 2.452e+20 
    GAMMA1 =      0 
    GAMMA2 =      0 
    VBX =      0 
    VBM =     -3 
    XT = 1.55e-07 
    K1 =   0.37 
    KT1 = -0.327 
    KT1L = -2.7e-09 
    KT2 = -0.035 
    K2 = -0.02479 
    K3 = -1.284 
    K3B =   0.52 
    LPE0 = 2.05e-08 
    LPEB =  1e-08 
    DVTP0 = 8.467e-06 
    DVTP1 =  3.222 
    W0 =  6e-09 
    DVT0 = 0.6336 
    DVT1 =  1.158 
    DVT2 =   0.12 
    DVT0W = -0.0008095 
    DVT1W = 1.854e+06 
    DVT2W =      1 
    DROUT =   0.56 
    DSUB = 0.4346 
    VTH0 = -0.3406 
    EU =      1 
    UA = 8.24e-13 
    UA1 = 0.0001027 
    UB = 1.714e-18 
    UB1 = -5e-05 
    UC =  1e-10 
    UC1 = -0.000605 
    U0 =    291 
    UTE =  -1.72 
    VOFF =  -0.13 
    VOFFL = -3.507e-09 
    MINV =    0.5 
    FPROUT =     60 
    PDITS = 0.8644 
    PDITSD = 0.7248 
    PDITSL =  1e+06 
    DELTA =   0.01 
    RDSW =    160 
    RDSWMIN =      0 
    RDWMIN =      0 
    RSWMIN =      0 
    RDW =    100 
    RSW =    100 
    PRWG =      0 
    PRWB =      0 
    PRT =  0.009 
    ETA0 = 0.04493 
    ETAB = -0.04419 
    PCLM = 0.06233 
    PDIBLC1 = 1.014e-07 
    PDIBLC2 = 1.5e-05 
    PDIBLCB =      0 
    PSCBE1 =  5e+09 
    PSCBE2 =  5e-06 
    PVAG =      0 
    WR =      1 
    DWG =      0 
    DWB =      0 
    XW =      0 
    XWREF =      0 
    XL = 2.3e-09 
    XLREF = 2.3e-09 
    B0 =      0 
    B1 =      0 
    ALPHA0 = 8.656e-12 
    ALPHA1 =      0 
    AGIDL = 1.19e-11 
    BGIDL = 3.415e+08 
    CGIDL =     15 
    PHIN =      0 
    EGIDL =  1e-08 
    AIGC = 0.007152 
    BIGC = 0.001215 
    CIGC =    0.1 
    AIGSD = 0.004214 
    BIGSD =      0 
    CIGSD =      0 
    AIGBACC = 0.01249 
    BIGBACC = 0.00233 
    CIGBACC = -1e-10 
    AIGBINV = 0.01311 
    BIGBINV = 0.002519 
    CIGBINV = 0.0005126 
    NIGC =   1.77 
    NIGBINV =      1 
    NIGBACC =  2.856 
    NTOX =      1 
    EIGBINV = 1.726e-06 
    PIGCD =      1 
    POXEDGE =  1.467 
    XRCRG1 =     12 
    TNOIA =    1.5 
    TNOIB =    3.5 
    NTNOI =      1 
    XRCRG2 =      1 
    BETA0 =      6 
    IJTHDFWD =    0.1 
    IJTHSFWD =    0.1 
    IJTHDREV =    0.1 
    IJTHSREV =    0.1 
    XJBVD =      1 
    XJBVS =      1 
    BVD =     12 
    BVS =     12 
    VFB =     -1 
    GBMIN =  1e-12 
    RBDB =     50 
    RBPB =     50 
    RBSB =     50 
    RBPS =     50 
    RBPD =     50 
    CGSL = 1.121e-10 
    CGDL = 1.121e-10 
    CKAPPAS =  2.973 
    CKAPPAD =  2.973 
    CF =      0 
    CLC =      0 
    CLE =    0.6 
    DWC =      0 
    DLC = 5.028e-09 
    DLCIG =  7e-09 
    DWJ =      0 
    VFBCV =     -1 
    ACDE =    0.5 
    MOIN =      5 
    NOFF =  2.401 
    VOFFCV = -0.075 
    DMCG =  7e-08 
    DMCI = 3.5e-08 
    DMDG =  6e-08 
    DMCGT =      0 
    XGW =  4e-08 
    XGL = -2e-09 
    RSHG =     11 
    NGCON =      1 
    TCJ = 0.0008822 
    TPB = 0.001392 
    TCJSW = 0.0007589 
    TPBSW = 0.0009973 
    TCJSWG = 0.0007282 
    TPBSWG = 0.0003417 
    SK0 =      0 
    SK1 =      0 
    SK2 =      0 
    SL =  2e-06 
    SW =  2e-06 
    K =      0 
    LNFACTOR =  0.045 
    LLPE0 = 2.3e-09 
    LDVT0 = 0.09729 
    LUTE = 0.0425 
    LMINV = -0.026 
    LETAB = 0.001264 
    LAIGC = -1.69e-05 
    LNOFF = 0.05705 
    LVOFFCV = -0.0034 
    WU0 =  4.544 
    PVSAT =   10.2 
    PDSUB = 0.0003 
    TNOM =  298.1 
    CGSO = 6.259e-11 
    CGDO = 6.259e-11 
    CGBO =      0 
    XPART =      0 
    RSH =      9 
    JSS = 8.942e-07 
    JSWS = 2.348e-13 
    JSWGS = 2.339e-13 
    PBS = 0.6893 
    MJS = 0.3146 
    PBSWS = 0.2669 
    MJSWS = 0.1452 
    CJS = 0.1935 
    CJSWS = 6.5e-11 
    NJS =  1.098 
    PBSWGS =   0.65 
    MJSWGS =  0.564 
    CJSWGS =  3e-10 
    XTIS =      3 
    JSD = 8.942e-07 
    JSWD = 2.348e-13 
    JSWGD = 2.339e-13 
    PBD = 0.6893 
    MJD = 0.3146 
    PBSWD = 0.2669 
    MJSWD = 0.1452 
    CJD = 0.1935 
    CJSWD = 6.5e-11 
    NJD =  1.098 
    PBSWGD =   0.65 
    MJSWGD =  0.564 
    CJSWGD =  3e-10 
    XTID =      3 
    LMLT =      1 
    WMLT =      1 
    LINT =      0 
    LL =      0 
    LLC =      0 
    LLN =      1 
    LW =      0 
    LWC =      0 
    LWN =      1 
    LWL =      0 
    LWLC =      0 
    LMIN =      0 
    LMAX =      1 
    WINT =      0 
    WL =      0 
    WLC =      0 
    WLN =      1 
    WW =      0 
    WWC =      0 
    WWN =      1 
    WWL =      0 
    WWLC =      0 
    WMIN =      0 
    WMAX =      1 
    NOIA = 1.077e+42 
    NOIB = 4.77e+22 
    NOIC = 1.699e+10 
    EM = 4.1e+07 
    EF =   1.04 
    AF =      1 
    KF =      0 
    TRS =      0 
    TRD =      0 
    TEMPMOD  =      1 
    LAMBDA   =      0 
    VTL      =  2e+05 m/s
    LC       =  5e-09 
    XN       =      3 
    LLAMBDA  =      0 
    LVTL     =      0 
    LXN      =      0 
    WLAMBDA  =      0 
    WVTL     =      0 
    WXN      =      0 
    PLAMBDA  =      0 
    PVTL     =      0 
    PXN      =      0 
    RNOIA    =  0.577 
    RNOIB    = 0.5164 
    SAREF(SA0) = 4.48e-07 m
    SBREF(SB0) = 4.48e-07 m
    WLOD     =      0 m
    KU0      = -1.31e-09 1/m
    KVSAT    =      0 
    KVTH0    = -1.18e-09 m
    TKU0     =      0 
    LLODKU0  =      0 
    WLODKU0  =      0 
    LLODVTH  =      0 
    WLODVTH  =      0 
    LKU0     =      0 
    WKU0     =      0 
    PKU0     =      0 
    LKVTH0   =      0 
    WKVTH0   =      0 
    PKVTH0   =      0 
    STK2     =      0 
    LODK2    =      1 
    STETA0   =      0 
    LODETA0  =      1 
    LXRCRG1  =      0 
    WXRCRG1  =      0 
    PXRCRG1  =      0 
    LXRCRG2  =      0 
    WXRCRG2  =      0 
    PXRCRG2  =      0 
     *** UCB's BSIM4.4.0 new diode model is activated. ***
    *** UCB's Diode Model Parameters ***
    JTSS         = 0.0017 
    JTSSWS       =  1e-11 
    JTSSWGS      = 7.788e-10 
    JTSD         = 0.0017 
    JTSSWD       =  1e-11 
    JTSSWGD      = 7.788e-10 
    NJTS         =     20 
    NJTSSW       =     20 
    NJTSSWG      =  2.887 
    XTSS         =   0.02 
    XTSSWS       =   0.02 
    XTSSWGS      = 0.08619 
    XTSD         =   0.02 
    XTSSWD       =   0.02 
    XTSSWGD      = 0.08619 
    TNJTS        =      0 
    TNJTSSW      =      0 
    TNJTSSWG     =   0.32 
    VFBSDOFF     =      0 
    LVFBSDOFF    =      0 
    WVFBSDOFF    =      0 
    PVFBSDOFF    =      0 
    LINTNOI      =      0 
    VTSS         =     10 
    VTSD         =     10 
    VTSSWS       =     10 
    VTSSWD       =     10 
    VTSSWGS      =      1 
    VTSSWGD      =      1 
    TTDIOMOD     =      1 
     *** UCB's BSIM4.5.0 new model is activated. ***
    UD         =      0 
    UD1        =      0 
    UP         =  0.262 
    LP         = 3.199e-07 
    TVOFF      =      0 
    TVFBSDOFF  =      0 
    RBPS0      =     50 
    RBPSL      =      0 
    RBPSW      =      0 
    RBPSNF     =      0 
    RBPD0      =     50 
    RBPDL      =      0 
    RBPDW      =      0 
    RBPDNF     =      0 
    RBPBX0     =    100 
    RBPBXL     =      0 
    RBPBXW     =      0 
    RBPBXNF    =      0 
    RBPBY0     =    100 
    RBPBYL     =      0 
    RBPBYW     =      0 
    RBPBYNF    =      0 
    RBSBX0     =    100 
    RBSBY0     =    100 
    RBDBX0     =    100 
    RBDBY0     =    100 
    RBSDBXL    =      0 
    RBSDBXW    =      0 
    RBSDBXNF   =      0 
    RBSDBYL    =      0 
    RBSDBYW    =      0 
    RBSDBYNF   =      0 
    LUD        =      0 
    LUD1       =      0 
    LUP        =      0 
    LLP        =      0 
    LTVOFF     =      0 
    LTVFBSDOFF =      0 
    WUD        =      0 
    WUD1       =      0 
    WUP        =      0 
    WLP        =      0 
    WTVOFF     =      0 
    WTVFBSDOFF =      0 
    PUD        =      0 
    PUD1       =      0 
    PUP        =      0 
    PLP        =      0 
    PTVOFF     =      0 
    PTVFBSDOFF =      0 
    WEB        = 6.7e+05 
    WEC        = -7e+05 
    KVTH0WE    = -9.23e-07 
    K2WE       =      0 
    KU0WE      =      0 
    SCREF      = 2.5e-06 
    WPEMOD     =      1 
    LKVTH0WE   =      0 
    LK2WE      =      0 
    LKU0WE     =      0 
    WKVTH0WE   =      0 
    WK2WE      =      0 
    WKU0WE     =      0 
    PKVTH0WE   =      0 
    PK2WE      =      0 
    PKU0WE     =      0 
  **warning** (pmos.sp:23) Both nodes of element vgnd are connected together; Line ignored.
  
      

Element variations(Local):   element              parameter
 *****************************************************************
 ******  option summary
 ******
 runlvl  = 3         bypass  = 2.0000    
  Opening plot unit= 15
 file=pmos.pa0

 ******
 ***** pmos.sp

 ****** dc transfer curves tnom=  25.000 temp=  70.000 ******
  *** parameter 0:vgs  =    -1.8000        ***
  
x

 volt         current    current    current     current   
             vds        vgs        vvdd        mmn.main   
   -1.80000   184.0277u   87.3148p -6.3642e-20 -184.0277u 
   -1.75000   182.6338u   85.5728p -6.1805e-20 -182.6338u 
   -1.70000   181.1834u   83.8670p -2.1309e-20 -181.1834u 
   -1.65000   179.6746u   82.1964p -2.4694e-20 -179.6746u 
   -1.60000   178.1055u   80.5601p  1.9569e-20 -178.1055u 
   -1.55000   176.4740u   78.9571p -9.7294e-21 -176.4740u 
   -1.50000   174.7782u   77.3865p  2.5783e-20 -174.7782u 
   -1.45000   173.0160u   75.8472p -1.1547e-20 -173.0160u 
   -1.40000   171.1853u   74.3384p  1.6939e-20 -171.1853u 
   -1.35000   169.2838u   72.8589p  4.0664e-20 -169.2838u 
   -1.30000   167.3092u   71.4078p -1.4016e-19 -167.3092u 
   -1.25000   165.2591u   69.9838p -2.0232e-20 -165.2591u 
   -1.20000   163.1308u   68.5860p -2.3667e-20 -163.1308u 
   -1.15000   160.9216u   67.2132p  3.1245e-20 -160.9216u 
   -1.10000   158.6284u   65.8641p  3.2284e-20 -158.6284u 
   -1.05000   156.2477u   64.5374p  1.1978e-20 -156.2477u 
   -1.00000   153.7759u   63.2320p -8.3028e-20 -153.7759u 
 -950.00000m  151.2083u   61.9463p  3.2172e-21 -151.2083u 
 -900.00000m  148.5398u   60.6791p -3.2815e-20 -148.5398u 
 -850.00000m  145.7642u   59.4288p -1.8276e-20 -145.7642u 
 -800.00000m  142.8735u   58.1940p -9.7777e-20 -142.8735u 
 -750.00000m  139.8579u   56.9733p  1.2402e-19 -139.8579u 
 -700.00000m  136.7040u   55.7655p -9.7976e-21 -136.7040u 
 -650.00000m  133.3939u   54.5693p  4.9058e-20 -133.3939u 
 -600.00000m  129.9012u   53.3841p  7.0953e-20 -129.9012u 
 -550.00000m  126.1867u   52.2100p -4.5383e-20 -126.1867u 
 -500.00000m  122.1872u   51.0484p -9.9286e-21 -122.1872u 
 -450.00000m  117.7946u   49.9039p -5.2387e-20 -117.7946u 
 -400.00000m  112.8097u   48.7868p  1.0048e-20 -112.8097u 
 -350.00000m  106.8406u   47.7212p  1.3475e-19 -106.8406u 
 -300.00000m   99.1256u   46.7581p -7.3737e-20  -99.1256u 
 -250.00000m   88.5631u   45.9773p -6.2457e-20  -88.5631u 
 -200.00000m   74.7023u   45.4109p  1.7669e-19  -74.7023u 
 -150.00000m   58.3034u   44.9888p -5.6958e-21  -58.3034u 
 -100.00000m   40.1779u   44.6327p -8.5417e-21  -40.1779u 
  -50.00000m   20.7016u   44.3146p -2.1628e-19  -20.7016u 
    0.        -21.9202p   43.8670p -2.6638e-19   21.9202p 
y
 ******
 ***** pmos.sp

 ****** dc transfer curves tnom=  25.000 temp=  70.000 ******
  *** parameter 0:vgs  =    -1.6000        ***
  
x

 volt         current    current    current     current   
             vds        vgs        vvdd        mmn.main   
   -1.80000   162.1466u   39.2009p -6.0248e-21 -162.1466u 
   -1.75000   160.8153u   38.4609p -1.4543e-20 -160.8153u 
   -1.70000   159.4352u   37.7348p -6.6310e-20 -159.4352u 
   -1.65000   158.0047u   37.0223p -1.9860e-20 -158.0047u 
   -1.60000   156.5222u   36.3230p -1.6978e-20 -156.5222u 
   -1.55000   154.9861u   35.6367p  9.8612e-20 -154.9861u 
   -1.50000   153.3949u   34.9640p -6.2786e-20 -153.3949u 
   -1.45000   151.7467u   34.3044p -1.0590e-19 -151.7467u 
   -1.40000   150.0400u   33.6576p  6.5478e-21 -150.0400u 
   -1.35000   148.2729u   33.0232p  1.8671e-20 -148.2729u 
   -1.30000   146.4437u   32.4006p  1.4132e-20 -146.4437u 
   -1.25000   144.5503u   31.7895p  8.4951e-20 -144.5503u 
   -1.20000   142.5907u   31.1893p  6.7043e-20 -142.5907u 
   -1.15000   140.5627u   30.5997p  1.1984e-20 -140.5627u 
   -1.10000   138.4639u   30.0200p -1.8904e-20 -138.4639u 
   -1.05000   136.2917u   29.4498p -4.2030e-20 -136.2917u 
   -1.00000   134.0432u   28.8885p  5.5199e-20 -134.0432u 
 -950.00000m  131.7148u   28.3355p  8.1544e-21 -131.7148u 
 -900.00000m  129.3028u   27.7902p -3.3920e-20 -129.3028u 
 -850.00000m  126.8024u   27.2519p  5.0398e-20 -126.8024u 
 -800.00000m  124.2079u   26.7201p  7.6284e-20 -124.2079u 
 -750.00000m  121.5122u   26.1940p  6.4531e-21 -121.5122u 
 -700.00000m  118.7060u   25.6730p -1.6958e-20 -118.7060u 
 -650.00000m  115.7768u   25.1565p  3.0073e-20 -115.7768u 
 -600.00000m  112.7072u   24.6442p  4.2443e-20 -112.7072u 
 -550.00000m  109.4719u   24.1356p -8.1367e-21 -109.4719u 
 -500.00000m  106.0315u   23.6309p -3.0856e-21 -106.0315u 
 -450.00000m  102.3211u   23.1311p  3.0609e-20 -102.3211u 
 -400.00000m   98.2255u   22.6384p  1.9431e-20  -98.2255u 
 -350.00000m   93.5216u   22.1588p  9.8422e-21  -93.5216u 
 -300.00000m   87.7462u   21.7060p  2.2442e-20  -87.7462u 
 -250.00000m   79.9694u   21.3098p  4.6762e-20  -79.9694u 
 -200.00000m   68.9862u   21.0114p -1.3778e-19  -68.9862u 
 -150.00000m   54.6834u   20.8120p -1.0276e-19  -54.6834u 
 -100.00000m   38.0340u   20.6692p -2.3375e-20  -38.0340u 
  -50.00000m   19.7225u   20.5564p -1.4042e-19  -19.7225u 
    0.        -10.1917p   20.3896p -1.0156e-19   10.1917p 
y
 ******
 ***** pmos.sp

 ****** dc transfer curves tnom=  25.000 temp=  70.000 ******
  *** parameter 0:vgs  =    -1.4000        ***
  
x

 volt         current    current    current     current   
             vds        vgs        vvdd        mmn.main   
   -1.80000   139.7519u   17.3092p -1.5247e-20 -139.7519u 
   -1.75000   138.4751u   17.0042p -4.3126e-20 -138.4751u 
   -1.70000   137.1570u   16.7045p  8.9497e-21 -137.1570u 
   -1.65000   135.7963u   16.4099p -1.6391e-20 -135.7963u 
   -1.60000   134.3919u   16.1201p -4.3274e-20 -134.3919u 
   -1.55000   132.9426u   15.8351p  4.1788e-20 -132.9426u 
   -1.50000   131.4470u   15.5548p -6.5952e-20 -131.4470u 
   -1.45000   129.9040u   15.2788p  3.5696e-20 -129.9040u 
   -1.40000   128.3122u   15.0072p -5.1032e-20 -128.3122u 
   -1.35000   126.6704u   14.7399p  4.7979e-20 -126.6704u 
   -1.30000   124.9770u   14.4778p -6.0679e-21 -124.9770u 
   -1.25000   123.2306u   14.2206p -7.6052e-20 -123.2306u 
   -1.20000   121.4298u   13.9681p  9.1025e-21 -121.4298u 
   -1.15000   119.5728u   13.7201p -1.4359e-22 -119.5728u 
   -1.10000   117.6579u   13.4765p -3.6004e-20 -117.6579u 
   -1.05000   115.6832u   13.2369p  4.3329e-20 -115.6832u 
   -1.00000   113.6463u   13.0012p  1.9438e-20 -113.6463u 
 -950.00000m  111.5449u   12.7691p  2.3230e-20 -111.5449u 
 -900.00000m  109.3761u   12.5404p -2.5315e-20 -109.3761u 
 -850.00000m  107.1365u   12.3147p -1.5187e-20 -107.1365u 
 -800.00000m  104.8220u   12.0919p -9.9228e-20 -104.8220u 
 -750.00000m  102.4277u   11.8715p  6.3810e-20 -102.4277u 
 -700.00000m   99.9471u   11.6534p  2.4124e-20  -99.9471u 
 -650.00000m   97.3720u   11.4372p  6.1375e-20  -97.3720u 
 -600.00000m   94.6910u   11.2227p  1.6705e-20  -94.6910u 
 -550.00000m   91.8880u   11.0097p -4.7567e-20  -91.8880u 
 -500.00000m   88.9390u   10.7981p  7.8256e-20  -88.9390u 
 -450.00000m   85.8058u   10.5880p  5.8528e-20  -85.8058u 
 -400.00000m   82.4234u   10.3799p  4.2885e-20  -82.4234u 
 -350.00000m   78.6708u   10.1751p  2.0672e-20  -78.6708u 
 -300.00000m   74.3003u    9.9768p  4.1168e-20  -74.3003u 
 -250.00000m   68.7609u    9.7929p  5.4834e-20  -68.7609u 
 -200.00000m   60.9179u    9.6411p -3.7108e-20  -60.9179u 
 -150.00000m   49.5607u    9.5405p  6.6920e-20  -49.5607u 
 -100.00000m   35.0286u    9.4829p -6.1703e-20  -35.0286u 
  -50.00000m   18.3444u    9.4490p  1.2826e-19  -18.3444u 
    0.         -4.6967p    9.3949p -1.0590e-19    4.6967p 
y
 ******
 ***** pmos.sp

 ****** dc transfer curves tnom=  25.000 temp=  70.000 ******
  *** parameter 0:vgs  =    -1.2000        ***
  
x

 volt         current    current    current     current   
             vds        vgs        vvdd        mmn.main   
   -1.80000   116.8470u    7.3965p  2.6675e-20 -116.8470u 
   -1.75000   115.6171u    7.2792p  6.4775e-20 -115.6171u 
   -1.70000   114.3533u    7.1634p -6.7502e-20 -114.3533u 
   -1.65000   113.0548u    7.0493p  8.2371e-20 -113.0548u 
   -1.60000   111.7207u    6.9366p  5.6065e-20 -111.7207u 
   -1.55000   110.3501u    6.8255p  3.4195e-20 -110.3501u 
   -1.50000   108.9423u    6.7158p  2.6629e-20 -108.9423u 
   -1.45000   107.4962u    6.6074p  2.2080e-20 -107.4962u 
   -1.40000   106.0111u    6.5003p -1.4629e-20 -106.0111u 
   -1.35000   104.4860u    6.3944p -2.3293e-20 -104.4860u 
   -1.30000   102.9199u    6.2897p -3.6595e-20 -102.9199u 
   -1.25000   101.3119u    6.1861p  1.9883e-20 -101.3119u 
   -1.20000    99.6609u    6.0834p  3.8962e-21  -99.6609u 
   -1.15000    97.9658u    5.9821p -2.9537e-20  -97.9658u 
   -1.10000    96.2253u    5.8827p -1.6537e-20  -96.2253u 
   -1.05000    94.4382u    5.7853p  6.7774e-20  -94.4382u 
   -1.00000    92.6028u    5.6896p -1.9222e-21  -92.6028u 
 -950.00000m   90.7176u    5.5957p -2.1077e-20  -90.7176u 
 -900.00000m   88.7804u    5.5034p  5.5930e-20  -88.7804u 
 -850.00000m   86.7891u    5.4127p -1.1759e-20  -86.7891u 
 -800.00000m   84.7410u    5.3233p -6.6583e-20  -84.7410u 
 -750.00000m   82.6325u    5.2351p  7.5197e-20  -82.6325u 
 -700.00000m   80.4597u    5.1481p -2.7926e-20  -80.4597u 
