Using: /usr/synopsys/HSPICE/hspice/O-2018.09-1/hspice/linux64/hspice  -i 'pmos_2w.sp'
 ****** HSPICE -- O-2018.09-1 linux64 (Sep 27 2018) ******                      
  Copyright (c) 1986 - 2024 by Synopsys, Inc. All Rights Reserved.              
  This software and the associated documentation are proprietary
  to Synopsys, Inc. This software may only be used in accordance
  with the terms and conditions of a written license agreement with
  Synopsys, Inc. All other use, reproduction, or distribution of
  this software is strictly prohibited.
  Input File: pmos_2w.sp                                                        
  Command line options: /usr/synopsys/HSPICE/hspice/O-2018.09-1/hspice/linux64/hspice -i pmos_2w.sp
 lic:  
 lic: FLEXlm: SDK_11.6.9.6 
 lic: USER:   mohammed             HOSTNAME: husynposyseng 
 lic: HOSTID: 005056ba9913         PID:      15314 
 lic: Using FLEXlm license file: 
 lic: 27020@husynposyseng 
 lic: Checkout 1 hspice 
 lic: License/Maintenance for hspice will expire on 31-jan-2026/2024.09 
 lic: 1(in_use)/100(total) FLOATING license(s) on SERVER 27020@husynposyseng 
 lic:   
1****** HSPICE -- O-2018.09-1 linux64 (Sep 27 2018) ******                      
 ******  
 ***** pmos.sp

 ****** circuit name directory
 circuit number to circuit name directory
   number circuitname                     definition         multiplier
        0 main circuit
        1 mmn.                            p105_hvt           1.00 
 ******  
 ***** pmos.sp

 ****** mos   model parameters tnom=  25.000 temp=  25.000 ******
 Model file: /home/mohammed/saed32nm.lib
 Model line:         1860
 Model Name: p105_hvt  
 BSIM4 Model (Level 54)
    MOBMOD = 0
    BINUNIT = 1
    PARAMCHK = 0
    CAPMOD = 2
    DIOMOD = 1
    RDSMOD = 0
    TRNQSMOD = 0
    ACNQSMOD = 0
    RBODYMOD = 0
    RGATEMOD = 0
    PERMOD = 1
    GEOMOD = 0
    RGEOMOD = 0
    FNOIMOD = 1
    TNOIMOD = 0
    IGCMOD = 1
    IGBMOD = 1
    STIMOD = 1
    VBFWDMOD = 0
    VERSION =    4.5 
    TOXREF = 2.62e-09 
    TOXE = 2.62e-09 
    TOXP = 2.3e-09 
    TOXM = 2.62e-09 
    DTOX =      0 
    EPSROX =    3.9 
    CDSC = 0.02157 
    CDSCB =  0.001 
    CDSCD = 0.001494 
    CIT =      0 
    NFACTOR =      1 
    XJ =  1e-07 
    VSAT = 1.606e+05 
    A0 =    4.3 
    AGS =  1.048 
    A1 =      0 
    A2 = 0.3157 
    AT = 0.0017 
    KETA =      0 
    NSUB =  6e+16 
    NDEP = 1.7e+17 
    NSD =  1e+20 
    NGATE = 2.452e+20 
    GAMMA1 =      0 
    GAMMA2 =      0 
    VBX =      0 
    VBM =     -3 
    XT = 1.55e-07 
    K1 =   0.37 
    KT1 = -0.327 
    KT1L = -2.7e-09 
    KT2 = -0.035 
    K2 = -0.02479 
    K3 = -1.284 
    K3B =   0.52 
    LPE0 = 2.05e-08 
    LPEB =  1e-08 
    DVTP0 = 8.467e-06 
    DVTP1 =  3.222 
    W0 =  6e-09 
    DVT0 = 0.6336 
    DVT1 =  1.158 
    DVT2 =   0.12 
    DVT0W = -0.0008095 
    DVT1W = 1.854e+06 
    DVT2W =      1 
    DROUT =   0.56 
    DSUB = 0.4346 
    VTH0 = -0.3406 
    EU =      1 
    UA = 8.24e-13 
    UA1 = 0.0001027 
    UB = 1.714e-18 
    UB1 = -5e-05 
    UC =  1e-10 
    UC1 = -0.000605 
    U0 =    291 
    UTE =  -1.72 
    VOFF =  -0.13 
    VOFFL = -3.507e-09 
    MINV =    0.5 
    FPROUT =     60 
    PDITS = 0.8644 
    PDITSD = 0.7248 
    PDITSL =  1e+06 
    DELTA =   0.01 
    RDSW =    160 
    RDSWMIN =      0 
    RDWMIN =      0 
    RSWMIN =      0 
    RDW =    100 
    RSW =    100 
    PRWG =      0 
    PRWB =      0 
    PRT =  0.009 
    ETA0 = 0.04493 
    ETAB = -0.04419 
    PCLM = 0.06233 
    PDIBLC1 = 1.014e-07 
    PDIBLC2 = 1.5e-05 
    PDIBLCB =      0 
    PSCBE1 =  5e+09 
    PSCBE2 =  5e-06 
    PVAG =      0 
    WR =      1 
    DWG =      0 
    DWB =      0 
    XW =      0 
    XWREF =      0 
    XL = 2.3e-09 
    XLREF = 2.3e-09 
    B0 =      0 
    B1 =      0 
    ALPHA0 = 8.656e-12 
    ALPHA1 =      0 
    AGIDL = 1.19e-11 
    BGIDL = 3.415e+08 
    CGIDL =     15 
    PHIN =      0 
    EGIDL =  1e-08 
    AIGC = 0.007152 
    BIGC = 0.001215 
    CIGC =    0.1 
    AIGSD = 0.004214 
    BIGSD =      0 
    CIGSD =      0 
    AIGBACC = 0.01249 
    BIGBACC = 0.00233 
    CIGBACC = -1e-10 
    AIGBINV = 0.01311 
    BIGBINV = 0.002519 
    CIGBINV = 0.0005126 
    NIGC =   1.77 
    NIGBINV =      1 
    NIGBACC =  2.856 
    NTOX =      1 
    EIGBINV = 1.726e-06 
    PIGCD =      1 
    POXEDGE =  1.467 
    XRCRG1 =     12 
    TNOIA =    1.5 
    TNOIB =    3.5 
    NTNOI =      1 
    XRCRG2 =      1 
    BETA0 =      6 
    IJTHDFWD =    0.1 
    IJTHSFWD =    0.1 
    IJTHDREV =    0.1 
    IJTHSREV =    0.1 
    XJBVD =      1 
    XJBVS =      1 
    BVD =     12 
    BVS =     12 
    VFB =     -1 
    GBMIN =  1e-12 
    RBDB =     50 
    RBPB =     50 
    RBSB =     50 
    RBPS =     50 
    RBPD =     50 
    CGSL = 1.121e-10 
    CGDL = 1.121e-10 
    CKAPPAS =  2.973 
    CKAPPAD =  2.973 
    CF =      0 
    CLC =      0 
    CLE =    0.6 
    DWC =      0 
    DLC = 5.028e-09 
    DLCIG =  7e-09 
    DWJ =      0 
    VFBCV =     -1 
    ACDE =    0.5 
    MOIN =      5 
    NOFF =  2.401 
    VOFFCV = -0.075 
    DMCG =  7e-08 
    DMCI = 3.5e-08 
    DMDG =  6e-08 
    DMCGT =      0 
    XGW =  4e-08 
    XGL = -2e-09 
    RSHG =     11 
    NGCON =      1 
    TCJ = 0.0008822 
    TPB = 0.001392 
    TCJSW = 0.0007589 
    TPBSW = 0.0009973 
    TCJSWG = 0.0007282 
    TPBSWG = 0.0003417 
    SK0 =      0 
    SK1 =      0 
    SK2 =      0 
    SL =  2e-06 
    SW =  2e-06 
    K =      0 
    LNFACTOR =  0.045 
    LLPE0 = 2.3e-09 
    LDVT0 = 0.09729 
    LUTE = 0.0425 
    LMINV = -0.026 
    LETAB = 0.001264 
    LAIGC = -1.69e-05 
    LNOFF = 0.05705 
    LVOFFCV = -0.0034 
    WU0 =  4.544 
    PVSAT =   10.2 
    PDSUB = 0.0003 
    TNOM =  298.1 
    CGSO = 6.259e-11 
    CGDO = 6.259e-11 
    CGBO =      0 
    XPART =      0 
    RSH =      9 
    JSS = 8.942e-07 
    JSWS = 2.348e-13 
    JSWGS = 2.339e-13 
    PBS = 0.6893 
    MJS = 0.3146 
    PBSWS = 0.2669 
    MJSWS = 0.1452 
    CJS = 0.1935 
    CJSWS = 6.5e-11 
    NJS =  1.098 
    PBSWGS =   0.65 
    MJSWGS =  0.564 
    CJSWGS =  3e-10 
    XTIS =      3 
    JSD = 8.942e-07 
    JSWD = 2.348e-13 
    JSWGD = 2.339e-13 
    PBD = 0.6893 
    MJD = 0.3146 
    PBSWD = 0.2669 
    MJSWD = 0.1452 
    CJD = 0.1935 
    CJSWD = 6.5e-11 
    NJD =  1.098 
    PBSWGD =   0.65 
    MJSWGD =  0.564 
    CJSWGD =  3e-10 
    XTID =      3 
    LMLT =      1 
    WMLT =      1 
    LINT =      0 
    LL =      0 
    LLC =      0 
    LLN =      1 
    LW =      0 
    LWC =      0 
    LWN =      1 
    LWL =      0 
    LWLC =      0 
    LMIN =      0 
    LMAX =      1 
    WINT =      0 
    WL =      0 
    WLC =      0 
    WLN =      1 
    WW =      0 
    WWC =      0 
    WWN =      1 
    WWL =      0 
    WWLC =      0 
    WMIN =      0 
    WMAX =      1 
    NOIA = 1.077e+42 
    NOIB = 4.77e+22 
    NOIC = 1.699e+10 
    EM = 4.1e+07 
    EF =   1.04 
    AF =      1 
    KF =      0 
    TRS =      0 
    TRD =      0 
    TEMPMOD  =      1 
    LAMBDA   =      0 
    VTL      =  2e+05 m/s
    LC       =  5e-09 
    XN       =      3 
    LLAMBDA  =      0 
    LVTL     =      0 
    LXN      =      0 
    WLAMBDA  =      0 
    WVTL     =      0 
    WXN      =      0 
    PLAMBDA  =      0 
    PVTL     =      0 
    PXN      =      0 
    RNOIA    =  0.577 
    RNOIB    = 0.5164 
    SAREF(SA0) = 4.48e-07 m
    SBREF(SB0) = 4.48e-07 m
    WLOD     =      0 m
    KU0      = -1.31e-09 1/m
    KVSAT    =      0 
    KVTH0    = -1.18e-09 m
    TKU0     =      0 
    LLODKU0  =      0 
    WLODKU0  =      0 
    LLODVTH  =      0 
    WLODVTH  =      0 
    LKU0     =      0 
    WKU0     =      0 
    PKU0     =      0 
    LKVTH0   =      0 
    WKVTH0   =      0 
    PKVTH0   =      0 
    STK2     =      0 
    LODK2    =      1 
    STETA0   =      0 
    LODETA0  =      1 
    LXRCRG1  =      0 
    WXRCRG1  =      0 
    PXRCRG1  =      0 
    LXRCRG2  =      0 
    WXRCRG2  =      0 
    PXRCRG2  =      0 
     *** UCB's BSIM4.4.0 new diode model is activated. ***
    *** UCB's Diode Model Parameters ***
    JTSS         = 0.0017 
    JTSSWS       =  1e-11 
    JTSSWGS      = 7.788e-10 
    JTSD         = 0.0017 
    JTSSWD       =  1e-11 
    JTSSWGD      = 7.788e-10 
    NJTS         =     20 
    NJTSSW       =     20 
    NJTSSWG      =  2.887 
    XTSS         =   0.02 
    XTSSWS       =   0.02 
    XTSSWGS      = 0.08619 
    XTSD         =   0.02 
    XTSSWD       =   0.02 
    XTSSWGD      = 0.08619 
    TNJTS        =      0 
    TNJTSSW      =      0 
    TNJTSSWG     =   0.32 
    VFBSDOFF     =      0 
    LVFBSDOFF    =      0 
    WVFBSDOFF    =      0 
    PVFBSDOFF    =      0 
    LINTNOI      =      0 
    VTSS         =     10 
    VTSD         =     10 
    VTSSWS       =     10 
    VTSSWD       =     10 
    VTSSWGS      =      1 
    VTSSWGD      =      1 
    TTDIOMOD     =      1 
     *** UCB's BSIM4.5.0 new model is activated. ***
    UD         =      0 
    UD1        =      0 
    UP         =  0.262 
    LP         = 3.199e-07 
    TVOFF      =      0 
    TVFBSDOFF  =      0 
    RBPS0      =     50 
    RBPSL      =      0 
    RBPSW      =      0 
    RBPSNF     =      0 
    RBPD0      =     50 
    RBPDL      =      0 
    RBPDW      =      0 
    RBPDNF     =      0 
    RBPBX0     =    100 
    RBPBXL     =      0 
    RBPBXW     =      0 
    RBPBXNF    =      0 
    RBPBY0     =    100 
    RBPBYL     =      0 
    RBPBYW     =      0 
    RBPBYNF    =      0 
    RBSBX0     =    100 
    RBSBY0     =    100 
    RBDBX0     =    100 
    RBDBY0     =    100 
    RBSDBXL    =      0 
    RBSDBXW    =      0 
    RBSDBXNF   =      0 
    RBSDBYL    =      0 
    RBSDBYW    =      0 
    RBSDBYNF   =      0 
    LUD        =      0 
    LUD1       =      0 
    LUP        =      0 
    LLP        =      0 
    LTVOFF     =      0 
    LTVFBSDOFF =      0 
    WUD        =      0 
    WUD1       =      0 
    WUP        =      0 
    WLP        =      0 
    WTVOFF     =      0 
    WTVFBSDOFF =      0 
    PUD        =      0 
    PUD1       =      0 
    PUP        =      0 
    PLP        =      0 
    PTVOFF     =      0 
    PTVFBSDOFF =      0 
    WEB        = 6.7e+05 
    WEC        = -7e+05 
    KVTH0WE    = -9.23e-07 
    K2WE       =      0 
    KU0WE      =      0 
    SCREF      = 2.5e-06 
    WPEMOD     =      1 
    LKVTH0WE   =      0 
    LK2WE      =      0 
    LKU0WE     =      0 
    WKVTH0WE   =      0 
    WK2WE      =      0 
    WKU0WE     =      0 
    PKVTH0WE   =      0 
    PK2WE      =      0 
    PKU0WE     =      0 
  **warning** (pmos_2w.sp:23) Both nodes of element vgnd are connected together; Line ignored.
  
      

Element variations(Local):   element              parameter
 *****************************************************************
 ******  option summary
 ******
 runlvl  = 3         bypass  = 2.0000    
  Opening plot unit= 15
 file=pmos_2w.pa0

 ******
 ***** pmos.sp

 ****** dc transfer curves tnom=  25.000 temp=  70.000 ******
  *** parameter 0:vgs  =    -1.8000        ***
  
x

 volt         current    current    current     current   
             vds        vgs        vvdd        mmn.main   
   -1.80000   376.0228u  194.2260p  3.7389e-20 -376.0228u 
   -1.75000   372.8767u  189.6540p  8.2240e-20 -372.8767u 
   -1.70000   369.6156u  185.1941p -1.1490e-19 -369.6156u 
   -1.65000   366.2361u  180.8431p -2.6851e-19 -366.2361u 
   -1.60000   362.7344u  176.5979p  1.2729e-19 -362.7344u 
   -1.55000   359.1070u  172.4553p -8.9014e-21 -359.1070u 
   -1.50000   355.3499u  168.4123p -2.8298e-20 -355.3499u 
   -1.45000   351.4595u  164.4657p -3.8749e-20 -351.4595u 
   -1.40000   347.4316u  160.6124p -5.3838e-20 -347.4316u 
   -1.35000   343.2623u  156.8493p -9.0019e-20 -343.2623u 
   -1.30000   338.9472u  153.1732p  1.2474e-20 -338.9472u 
   -1.25000   334.4818u  149.5811p  9.3605e-20 -334.4818u 
   -1.20000   329.8613u  146.0696p  7.1070e-22 -329.8613u 
   -1.15000   325.0806u  142.6357p -3.9164e-20 -325.0806u 
   -1.10000   320.1339u  139.2758p -9.1490e-20 -320.1339u 
   -1.05000   315.0149u  135.9867p -1.0341e-20 -315.0149u 
   -1.00000   309.7164u  132.7650p -4.9144e-20 -309.7164u 
 -950.00000m  304.2300u  129.6071p -4.9411e-22 -304.2300u 
 -900.00000m  298.5459u  126.5096p -9.8208e-20 -298.5459u 
 -850.00000m  292.6519u  123.4688p  2.3046e-20 -292.6519u 
 -800.00000m  286.5329u  120.4813p -1.2698e-21 -286.5329u 
 -750.00000m  280.1695u  117.5438p -5.8419e-21 -280.1695u 
 -700.00000m  273.5357u  114.6529p -1.1893e-19 -273.5357u 
 -650.00000m  266.5955u  111.8062p -1.0312e-19 -266.5955u 
 -600.00000m  259.2970u  109.0019p  1.9665e-19 -259.2970u 
 -550.00000m  251.5612u  106.2399p  6.9528e-22 -251.5612u 
 -500.00000m  243.2613u  103.5232p  2.9546e-20 -243.2613u 
 -450.00000m  234.1793u  100.8608p -3.7929e-20 -234.1793u 
 -400.00000m  223.9125u   98.2741p -7.4697e-20 -223.9125u 
 -350.00000m  211.6712u   95.8123p -2.7186e-20 -211.6712u 
 -300.00000m  195.9391u   93.5792p -1.3763e-19 -195.9391u 
 -250.00000m  174.6063u   91.7297p -3.1432e-19 -174.6063u 
 -200.00000m  146.9479u   90.3133p  9.2877e-20 -146.9479u 
 -150.00000m  114.5025u   89.1833p  1.0053e-19 -114.5025u 
 -100.00000m   78.8072u   88.1865p -2.8325e-19  -78.8072u 
  -50.00000m   40.5620u   87.2699p -1.8279e-19  -40.5620u 
    0.        -43.0273p   86.1054p  4.2236e-19   43.0273p 
y
 ******
 ***** pmos.sp

 ****** dc transfer curves tnom=  25.000 temp=  70.000 ******
  *** parameter 0:vgs  =    -1.6000        ***
  
x

 volt         current    current    current     current   
             vds        vgs        vvdd        mmn.main   
   -1.80000   332.6691u   86.7216p  2.2419e-19 -332.6691u 
   -1.75000   329.6481u   84.7874p -1.4460e-19 -329.6481u 
   -1.70000   326.5273u   82.8970p  2.0702e-20 -326.5273u 
   -1.65000   323.3039u   81.0492p -9.3603e-20 -323.3039u 
   -1.60000   319.9749u   79.2428p -1.4842e-20 -319.9749u 
   -1.55000   316.5373u   77.4771p  3.7396e-20 -316.5373u 
   -1.50000   312.9883u   75.7526p -5.5679e-20 -312.9883u 
   -1.45000   309.3247u   74.0680p  1.0542e-19 -309.3247u 
   -1.40000   305.5435u   72.4221p -5.8126e-20 -305.5435u 
   -1.35000   301.6414u   70.8137p -3.9684e-20 -301.6414u 
   -1.30000   297.6151u   69.2414p -1.8853e-20 -297.6151u 
   -1.25000   293.4611u   67.7041p -8.8788e-20 -293.4611u 
   -1.20000   289.1757u   66.2003p -1.7806e-19 -289.1757u 
   -1.15000   284.7550u   64.7288p -1.9381e-20 -284.7550u 
   -1.10000   280.1945u   63.2881p -2.6655e-20 -280.1945u 
   -1.05000   275.4894u   61.8770p -9.2939e-21 -275.4894u 
   -1.00000   270.6344u   60.4938p -7.2532e-20 -270.6344u 
 -950.00000m  265.6232u   59.1373p -1.0280e-20 -265.6232u 
 -900.00000m  260.4485u   57.8058p  1.5407e-20 -260.4485u 
 -850.00000m  255.1013u   56.4978p  5.4287e-20 -255.1013u 
 -800.00000m  249.5710u   55.2118p -1.2907e-19 -249.5710u 
 -750.00000m  243.8436u   53.9462p -1.2719e-19 -243.8436u 
 -700.00000m  237.9013u   52.6997p -7.0970e-20 -237.9013u 
 -650.00000m  231.7195u   51.4708p -1.3832e-20 -231.7195u 
 -600.00000m  225.2642u   50.2584p  2.1756e-20 -225.2642u 
 -550.00000m  218.4848u   49.0620p  4.5404e-20 -218.4848u 
 -500.00000m  211.3028u   47.8817p -1.3230e-19 -211.3028u 
 -450.00000m  203.5881u   46.7193p  1.9069e-19 -203.5881u 
 -400.00000m  195.1090u   45.5798p  5.7922e-20 -195.1090u 
 -350.00000m  185.4162u   44.4750p  2.6564e-19 -185.4162u 
 -300.00000m  173.5793u   43.4331p  6.1447e-20 -173.5793u 
 -250.00000m  157.7612u   42.5143p  1.7578e-19 -157.7612u 
 -200.00000m  135.6917u   41.7972p  2.4517e-19 -135.6917u 
 -150.00000m  107.3081u   41.2772p -1.9169e-19 -107.3081u 
 -100.00000m   74.5117u   40.8691p  1.3190e-19  -74.5117u 
  -50.00000m   38.5869u   40.5215p  6.8476e-20  -38.5869u 
    0.        -20.0290p   40.0701p -2.3492e-19   20.0290p 
y
 ******
 ***** pmos.sp

 ****** dc transfer curves tnom=  25.000 temp=  70.000 ******
  *** parameter 0:vgs  =    -1.4000        ***
  
x

 volt         current    current    current     current   
             vds        vgs        vvdd        mmn.main   
   -1.80000   288.2870u   38.0739p  2.3808e-21 -288.2870u 
   -1.75000   285.3743u   37.2784p -2.7231e-20 -285.3743u 
   -1.70000   282.3767u   36.4997p  7.0685e-20 -282.3767u 
   -1.65000   279.2921u   35.7371p -1.1151e-19 -279.2921u 
   -1.60000   276.1182u   34.9904p -2.7816e-19 -276.1182u 
   -1.55000   272.8529u   34.2589p -6.9076e-20 -272.8529u 
   -1.50000   269.4939u   33.5421p -4.1304e-20 -269.4939u 
   -1.45000   266.0389u   32.8397p -1.3453e-20 -266.0389u 
   -1.40000   262.4858u   32.1511p -1.0587e-19 -262.4858u 
   -1.35000   258.8321u   31.4764p  1.1791e-19 -258.8321u 
   -1.30000   255.0754u   30.8168p -1.0621e-19 -255.0754u 
   -1.25000   251.2132u   30.1719p -9.6492e-20 -251.2132u 
   -1.20000   247.2428u   29.5410p  1.6292e-20 -247.2428u 
   -1.15000   243.1613u   28.9237p -7.8749e-20 -243.1613u 
   -1.10000   238.9656u   28.3194p -2.9213e-20 -238.9656u 
   -1.05000   234.6523u   27.7275p  1.1613e-19 -234.6523u 
   -1.00000   230.2174u   27.1474p  6.6490e-20 -230.2174u 
 -950.00000m  225.6565u   26.5785p -9.5755e-20 -225.6565u 
 -900.00000m  220.9645u   26.0203p -2.2398e-19 -220.9645u 
 -850.00000m  216.1351u   25.4720p -9.8748e-20 -216.1351u 
 -800.00000m  211.1607u   24.9330p -1.6255e-19 -211.1607u 
 -750.00000m  206.0320u   24.4026p -4.9089e-20 -206.0320u 
 -700.00000m  200.7369u   23.8802p  5.1222e-20 -200.7369u 
 -650.00000m  195.2594u   23.3651p -5.2231e-20 -195.2594u 
 -600.00000m  189.5773u   22.8569p  1.0933e-19 -189.5773u 
 -550.00000m  183.6592u   22.3550p  5.1967e-20 -183.6592u 
 -500.00000m  177.4576u   21.8592p -1.5322e-19 -177.4576u 
 -450.00000m  170.8967u   21.3699p -1.4802e-19 -170.8967u 
 -400.00000m  163.8464u   20.8878p  5.1762e-20 -163.8464u 
 -350.00000m  156.0645u   20.4158p -3.1184e-20 -156.0645u 
 -300.00000m  147.0538u   19.9604p  2.2872e-21 -147.0538u 
 -250.00000m  135.7141u   19.5378p -1.0090e-19 -135.7141u 
 -200.00000m  119.8256u   19.1830p -2.9526e-19 -119.8256u 
 -150.00000m   97.1591u   18.9320p  1.5636e-19  -97.1591u 
 -100.00000m   68.5037u   18.7659p  6.6354e-20  -68.5037u 
  -50.00000m   35.8119u   18.6463p  4.4771e-19  -35.8119u 
    0.         -9.2426p   18.4878p  4.2208e-20    9.2426p 
y
 ******
 ***** pmos.sp

 ****** dc transfer curves tnom=  25.000 temp=  70.000 ******
  *** parameter 0:vgs  =    -1.2000        ***
  
x

 volt         current    current    current     current   
             vds        vgs        vvdd        mmn.main   
   -1.80000   242.8802u   16.1744p  1.3209e-19 -242.8802u 
   -1.75000   240.0603u   15.8666p  7.7184e-20 -240.0603u 
   -1.70000   237.1704u   15.5645p  4.4372e-20 -237.1704u 
   -1.65000   234.2088u   15.2679p  3.7551e-20 -234.2088u 
   -1.60000   231.1742u   14.9765p -3.6214e-20 -231.1742u 
   -1.55000   228.0649u   14.6904p  7.8263e-20 -228.0649u 
   -1.50000   224.8797u   14.4091p  1.3103e-19 -224.8797u 
   -1.45000   221.6170u   14.1327p -4.9030e-20 -221.6170u 
   -1.40000   218.2752u   13.8608p  1.9362e-19 -218.2752u 
   -1.35000   214.8530u   13.5933p  6.2410e-20 -214.8530u 
   -1.30000   211.3488u   13.3300p -4.5172e-20 -211.3488u 
   -1.25000   207.7608u   13.0707p  4.5774e-20 -207.7608u 
   -1.20000   204.0875u   12.8152p -2.0989e-20 -204.0875u 
   -1.15000   200.3270u   12.5640p  2.3346e-20 -200.3270u 
   -1.10000   196.4772u   12.3184p -4.1337e-20 -196.4772u 
   -1.05000   192.5360u   12.0783p  1.8840e-19 -192.5360u 
   -1.00000   188.5009u   11.8434p  1.3611e-19 -188.5009u 
 -950.00000m  184.3688u   11.6136p  1.0279e-19 -184.3688u 
 -900.00000m  180.1366u   11.3884p -1.7341e-19 -180.1366u 
 -850.00000m  175.8000u   11.1677p -5.6874e-20 -175.8000u 
 -800.00000m  171.3544u   10.9513p -1.6197e-19 -171.3544u 
 -750.00000m  166.7935u   10.7387p -8.5793e-20 -166.7935u 
 -700.00000m  162.1098u   10.5298p  1.4754e-20 -162.1098u 
